<Qucs Dataset 0.0.19>
<indep acfrequency 100>
  +1.00000000000000000000e+00
  +1.12332403297802740916e+00
  +1.26185688306602039610e+00
  +1.41747416292680528116e+00
  +1.59228279334109235066e+00
  +1.78864952905743468392e+00
  +2.00923300256504733241e+00
  +2.25701971963392011844e+00
  +2.53536449397011187656e+00
  +2.84803586843580136545e+00
  +3.19926713779738314258e+00
  +3.59381366380462718979e+00
  +4.03701725859655446982e+00
  +4.53487850812858184213e+00
  +5.09413801481637928958e+00
  +5.72236765935021729490e+00
  +6.42807311728432129172e+00
  +7.22080901838546473925e+00
  +8.11130830789686996241e+00
  +9.11162756115489358422e+00
  +1.02353102189902607222e+01
  +1.14975699539773597024e+01
  +1.29154966501488388531e+01
  +1.45082877849593998576e+01
  +1.62975083462064418427e+01
  +1.83073828029536862516e+01
  +2.05651230834865152985e+01
  +2.31012970008316038673e+01
  +2.59502421139973620257e+01
  +2.91505306282517757666e+01
  +3.27454916287772874739e+01
  +3.67837977182863440362e+01
  +4.13201240011533741381e+01
  +4.64158883361277858626e+01
  +5.21400828799968607541e+01
  +5.85702081805666594505e+01
  +6.57933224657567876648e+01
  +7.39072203352578185331e+01
  +8.30217568131974701373e+01
  +9.32603346883219899155e+01
  +1.04761575278966461156e+02
  +1.17681195243499900016e+02
  +1.32194114846602957414e+02
  +1.48496826225446511671e+02
  +1.66810053720005868172e+02
  +1.87381742286038502243e+02
  +2.10490414451202127566e+02
  +2.36448941264540763996e+02
  +2.65608778294668638864e+02
  +2.98364724028333853312e+02
  +3.35160265093884390808e+02
  +3.76493580679246917953e+02
  +4.22924287438949875195e+02
  +4.75081016210279585721e+02
  +5.33669923120631210622e+02
  +5.99484250318941235491e+02
  +6.73415065775082211985e+02
  +7.56463327554628790494e+02
  +8.49753435908644746632e+02
  +9.54548456661834393344e+02
  +1.07226722201032339399e+03
  +1.20450354025878209541e+03
  +1.35304777457980799227e+03
  +1.51991108295293429364e+03
  +1.70735264747069118130e+03
  +1.91791026167248855927e+03
  +2.15443469003188329225e+03
  +2.42012826479438308525e+03
  +2.71858824273294158047e+03
  +3.05385550883341829831e+03
  +3.43046928631491800843e+03
  +3.85352859371053182258e+03
  +4.32876128108305601927e+03
  +4.86260158006535493769e+03
  +5.46227721768434639671e+03
  +6.13590727341317142418e+03
  +6.89261210434970053029e+03
  +7.74263682681127920659e+03
  +8.69749002617783298774e+03
  +9.77009957299225970928e+03
  +1.09749876549305572553e+04
  +1.23284673944206660963e+04
  +1.38488637139387446950e+04
  +1.55567614393047169870e+04
  +1.74752840000768483151e+04
  +1.96304065004026997485e+04
  +2.20513073990304619656e+04
  +2.47707635599171298963e+04
  +2.78255940220712400333e+04
  +3.12571584968823772215e+04
  +3.51119173421513551148e+04
  +3.94420605943765549455e+04
  +4.43062145758388360264e+04
  +4.97702356433210879914e+04
  +5.59081018251222558320e+04
  +6.28029144183425887604e+04
  +7.05480231071864254773e+04
  +7.92482898353917844361e+04
  +8.90215085445038130274e+04
  +1.00000000000000014552e+05
</indep>
<dep TdB acfrequency>
  +1.01157045528991063918e-06
  +1.27645720025805297195e-06
  +1.61070639996405215223e-06
  +2.03248110304720829941e-06
  +2.56470050893297537128e-06
  +3.23628536984711131065e-06
  +4.08372957633122471411e-06
  +5.15308323536984773741e-06
  +6.50245508189483356170e-06
  +8.20517014473663822182e-06
  +1.03537543090081476488e-05
  +1.30649623251843244060e-05
  +1.64861224916622103203e-05
  +2.08031428273882531784e-05
  +2.62506139422251132327e-05
  +3.31245576573575373300e-05
  +4.17985144045768453784e-05
  +5.27438439324883994830e-05
  +6.65553430588011632561e-05
  +8.39835733906390587014e-05
  +1.05975657212763310676e-04
  +1.33726760654584350121e-04
  +1.68745065460657386880e-04
  +2.12933765715423578557e-04
  +2.68694554679699672359e-04
  +3.39058240005037916584e-04
  +4.27849608723257241599e-04
  +5.39895538570964715099e-04
  +6.81287724535825254743e-04
  +8.59714393149882145223e-04
  +1.08487918258021501759e-03
  +1.36903019382773861144e-03
  +1.72762834945144059043e-03
  +2.18019199640899583731e-03
  +2.75136463369719374422e-03
  +3.47226535555835097782e-03
  +4.38219789798220595717e-03
  +5.53081515409165058728e-03
  +6.98086315738476789056e-03
  +8.81166383055517060674e-03
  +1.11235420428368401297e-02
  +1.40434636124588101830e-02
  +1.77322324000221374918e-02
  +2.23937046394171758446e-02
  +2.82866290713699591874e-02
  +3.57399302144194852549e-02
  +4.51725467064138172524e-02
  +5.71193599933113027589e-02
  +7.22653691149906379776e-02
  +9.14911962192767463931e-02
  +1.15934429923564175091e-01
  +1.47073545599761240643e-01
  +1.86844736584029252890e-01
  +2.37807948036531824343e-01
  +3.03388594971523262167e-01
  +3.88239502797156965652e-01
  +4.98800928812258848044e-01
  +6.44200971255565857376e-01
  +8.37770457716362493272e-01
  +1.09973453349501681942e+00
  +1.46232714571097077716e+00
  +1.98037619389683960947e+00
  +2.75584589856031403343e+00
  +4.00465268007344299406e+00
  +6.28998833941848278783e+00
  +1.17699108477039171561e+01
  +1.17320238487328580845e+01
  -2.10097315185098487689e+00
  -1.55963811876731170969e+01
  -2.12652553079824322424e+01
  -1.31501633209049089146e+01
  -1.04405901021134095430e+01
  -9.04571141704312786658e+00
  -8.21093899110315561529e+00
  -7.67325687879460982543e+00
  -7.31476939685892624254e+00
  -7.07470559423926026454e+00
  -6.91901392503177881110e+00
  -6.82775647900383386713e+00
  -6.78919700780257784345e+00
  -6.79676232891277454229e+00
  -6.84735466042522578078e+00
  -6.94033428775441407765e+00
  -7.07683707405842632454e+00
  -7.25924757185320590480e+00
  -7.49072850176086024732e+00
  -7.77475676195445242200e+00
  -8.11465381636070759441e+00
  -8.51312995165843311440e+00
  -8.97188535461088321199e+00
  -9.49132048059553667940e+00
  -1.00703993712858768106e+01
  -1.07066839753256992651e+01
  -1.13965238615189221605e+01
  -1.21353564062572765181e+01
  -1.29180575015918304160e+01
  -1.37392849359108630836e+01
  -1.45937716061014519653e+01
  -1.54765459035724752823e+01
  -1.63830749958539598765e+01
</dep>
<dep T acfrequency>
  -1.00000011448743775233e+00+j6.28318677173335957478e-05
  -1.00000014446677010227e+00+j7.05805513611905551655e-05
  -1.00000018229640241785e+00+j7.92848357056163440112e-05
  -1.00000023003199212113e+00+j8.90625700109979109983e-05
  -1.00000029026748826766e+00+j1.00046137558074655868e-04
  -1.00000036627608457351e+00+j1.12384248111274567643e-04
  -1.00000046218808891219e+00+j1.26243951517030454776e-04
  -1.00000058321536466899e+00+j1.41812899632300651797e-04
  -1.00000073593455085508e+00+j1.59301887845289324519e-04
  -1.00000092864444289908e+00+j1.78947709319562389078e-04
  -1.00000117181696190904e+00+j2.01016361944718026855e-04
  -1.00000147866622191017e+00+j2.25806651355034036181e-04
  -1.00000186586662009880e+00+j2.53654238114827518778e-04
  -1.00000235445897778241e+00+j2.84936184979378938961e-04
  -1.00000297099399371170e+00+j3.20076065953332181309e-04
  -1.00000374897515431627e+00+j3.59549706352084322367e-04
  -1.00000473067955120143e+00+j4.03891632875730906185e-04
  -1.00000596945559760975e+00+j4.53702321357824628865e-04
  -1.00000753262258923471e+00+j5.09656342211802339606e-04
  -1.00000950512980546492e+00+j5.72511515257323184806e-04
  -1.00001199417420560955e+00+j6.43119200900625826757e-04
  -1.00001513502798777822e+00+j7.22435870734738222465e-04
  -1.00001909839323377405e+00+j8.11536119485088453147e-04
  -1.00002409968416050567e+00+j9.11627302249294634885e-04
  -1.00003041074277909672e+00+j1.02406600603955353149e-03
  -1.00003837462680622572e+00+j1.15037659400249675859e-03
  -1.00004842427694606855e+00+j1.29227209520584485243e-03
  -1.00006110608356579839e+00+j1.45167775381208779585e-03
  -1.00007710964235485562e+00+j1.63075760030625288056e-03
  -1.00009730533021223842e+00+j1.83194446691973471079e-03
  -1.00012279176603535724e+00+j2.05797394194999223177e-03
  -1.00015495577176771747e+00+j2.31192284821277486626e-03
  -1.00019554814989564129e+00+j2.59725294482589805570e-03
  -1.00024677948744944445e+00+j2.91786069723698644751e-03
  -1.00031144133965410603e+00+j3.27813414928816585295e-03
  -1.00039305961305990955e+00+j3.68301817965569280866e-03
  -1.00049608885746765807e+00+j4.13808975564890647175e-03
  -1.00062615862226378383e+00+j4.64964524358226546225e-03
  -1.00079038621909588436e+00+j5.22480244356159865410e-03
  -1.00099777441306514447e+00+j5.87162085618528600123e-03
  -1.00125971809625768927e+00+j6.59924485900255201887e-03
  -1.00159065139165259772e+00+j7.41807611884831834964e-03
  -1.00200887663599869093e+00+j8.33998391074513775734e-03
  -1.00253763039828758252e+00+j9.37856538474873650812e-03
  -1.00320646076611996733e+00+j1.05494727215520688046e-02
  -1.00405301712508898682e+00+j1.18708313264718392371e-02
  -1.00512539255694810514e+00+j1.33637839623860412569e-02
  -1.00648521616124031475e+00+j1.50532120030911400338e-02
  -1.00821177844465115214e+00+j1.69687100779706348530e-02
  -1.01040760472246393675e+00+j1.91459298229689905968e-02
  -1.01320609876545653094e+00+j2.16284718979198216371e-02
  -1.01678221346159958216e+00+j2.44706101778176324246e-02
  -1.02136766050357152835e+00+j2.77413101792266733603e-02
  -1.02727312156864925008e+00+j3.15303172063949657677e-02
  -1.03492160763243323807e+00+j3.59576627759912101356e-02
  -1.04490021686122913636e+00+j4.11890330307800381360e-02
  -1.05804352655904287950e+00+j4.74616453193168197355e-02
  -1.07557402341064345386e+00+j5.51299811862907274129e-02
  -1.09935132448204297972e+00+j6.47515014775243008538e-02
  -1.13234349672830947320e+00+j7.72593947403733827262e-02
  -1.17959172631643172124e+00+j9.43442884235860812492e-02
  -1.25039600789733795771e+00+j1.19405840112132052844e-01
  -1.36399163211204244028e+00+j1.60353184647018948139e-01
  -1.56745398705417104956e+00+j2.40139343041789243838e-01
  -2.01184536155470317098e+00+j4.56564284024731092959e-01
  -3.42785205500506284793e+00+j1.81133690597795848909e+00
  +3.29121291095636170354e+00+j2.01704499625186084444e+00
  +7.79531800281768161298e-01+j9.37391339992659222702e-02
  +1.65961068655815030537e-01+j4.70852828807284077423e-03
  -8.64325813476063409269e-02+j1.43384703436140871317e-03
  -2.19787430127588140349e-01+j1.04355915304344907396e-02
  -2.99790068198227954710e-01+j2.18765807542704339428e-02
  -3.51320947340456712915e-01+j3.38822593967761931388e-02
  -3.85807820936845513593e-01+j4.61269411760086081586e-02
  -4.09187187068835667159e-01+j5.86445850698747925267e-02
  -4.24803237058096361256e-01+j7.15454000743886708857e-02
  -4.34636909936333304394e-01+j8.49362626480146126751e-02
  -4.39888558994649292444e-01+j9.88934128324403527444e-02
  -4.41280002557992157008e-01+j1.13448343728335218628e-01
  -4.39224587190029158723e-01+j1.28575776993556073480e-01
  -4.33932370216316309897e-01+j1.44180881322302889558e-01
  -4.25483624547245864456e-01+j1.60086051604701240514e-01
  -4.13888283483351382408e-01+j1.76019418126833609994e-01
  -3.99140657519805042153e-01+j1.91608756704412713789e-01
  -3.81273177560078668780e-01+j2.06385581615573160397e-01
  -3.60408133139538067180e-01+j2.19804364226435150487e-01
  -3.36801987283652459748e-01+j2.31280243336838858825e-01
  -3.10873628592455819586e-01+j2.40244736021376137369e-01
  -2.83207368560349892483e-01+j2.46213191490362554026e-01
  -2.54524924493448490015e-01+j2.48851823726466248043e-01
  -2.25627904471542489739e-01+j2.48028944865552519738e-01
  -1.97321061444791973072e-01+j2.43836955506047448061e-01
  -1.70332929236620661539e-01+j2.36578959447432735086e-01
  -1.45251183923522042551e-01+j2.26723835095920422944e-01
  -1.22484778539635325023e-01+j2.14841895404879662523e-01
  -1.02256245774973747453e-01+j2.01536594712862393575e-01
  -8.46194811008793845719e-02+j1.87385604140718642352e-01
  -6.94936415266038109984e-02+j1.72899049882125899202e-01
  -5.67031189330420223871e-02+j1.58496701142114337912e-01
  -4.60156921666580037700e-02+j1.44501504477285824812e-01
</dep>
<dep Phrad acfrequency>
  +3.14153716799263094117e+00
  +3.14152941929390472353e+00
  +3.14152071499351137618e+00
  +3.14151093724244478977e+00
  +3.14149995365786427470e+00
  +3.14148761553072208841e+00
  +3.14147375581228960328e+00
  +3.14145818685240563184e+00
  +3.14144069785822122043e+00
  +3.14142105204031230059e+00
  +3.14139898340625389750e+00
  +3.14137419315834209854e+00
  +3.14134634564745685026e+00
  +3.14131506382729774884e+00
  +3.14127992414744383609e+00
  +3.14124045081629921228e+00
  +3.14119610935528870144e+00
  +3.14114629935716482834e+00
  +3.14109034634914552342e+00
  +3.14102749265026837122e+00
  +3.14095688709747822287e+00
  +3.14087757349952045871e+00
  +3.14078847765971369554e+00
  +3.14068839278794431635e+00
  +3.14057596309893360953e+00
  +3.14044966536699687865e+00
  +3.14030778817660483071e+00
  +3.14014840857221777526e+00
  +3.13996936576926932716e+00
  +3.13976823153898232377e+00
  +3.13954227682171005398e+00
  +3.13928843405377699938e+00
  +3.13900325460824669577e+00
  +3.13868286064638368771e+00
  +3.13832289054746205181e+00
  +3.13791843692134264643e+00
  +3.13746397599943582790e+00
  +3.13695328692790731395e+00
  +3.13637935912864129762e+00
  +3.13573428541418808280e+00
  +3.13500913789329649362e+00
  +3.13419382281146363667e+00
  +3.13327690923067292417e+00
  +3.13224542470641642566e+00
  +3.13108460863156334852e+00
  +3.12977761032370782601e+00
  +3.12830511367356844943e+00
  +3.12664486235816196924e+00
  +3.12477104781840964165e+00
  +3.12265350403218544528e+00
  +3.12025662455056407296e+00
  +3.11753787126516579420e+00
  +3.11444566823434509928e+00
  +3.11091634386915094623e+00
  +3.10686955467628544980e+00
  +3.10220119959419848854e+00
  +3.09677201440870009108e+00
  +3.09038836288727081225e+00
  +3.08276809742614110732e+00
  +3.07347577713355857298e+00
  +3.06178924381233619201e+00
  +3.04639405759161085996e+00
  +3.02457516919283131429e+00
  +2.98957822997811151211e+00
  +2.91844112949991796313e+00
  +2.65547657651236068688e+00
  +5.49821334257901694897e-01
  +1.19676199776038341693e-01
  +2.83637397550944928004e-02
  +3.12501228673118536250e+00
  +3.09415513681636600296e+00
  +3.06875594552519670444e+00
  +3.04545465761779876601e+00
  +3.02260519036250974168e+00
  +2.99924933548332317557e+00
  +2.97474538399826560209e+00
  +2.94861275748991635837e+00
  +2.92046142218395132772e+00
  +2.88995972528506328558e+00
  +2.85682225828924307720e+00
  +2.82080979295002176599e+00
  +2.78173749985532436924e+00
  +2.73948920932007222717e+00
  +2.69403572730120588474e+00
  +2.64545473009614617865e+00
  +2.59394889370749748281e+00
  +2.53985807807986452289e+00
  +2.48366110704245590668e+00
  +2.42596349392987820082e+00
  +2.36746963826101852746e+00
  +2.30894128593217473622e+00
  +2.25114748260108354927e+00
  +2.19481359525726027471e+00
  +2.14057725911500673632e+00
  +2.08895720698446263341e+00
  +2.04033766224230106445e+00
  +1.99496758248443040173e+00
  +1.95297158110572355305e+00
  +1.91436827064176373625e+00
  +1.87909190874956788520e+00
</dep>
<dep Ph acfrequency>
  +1.79996399999577761264e+02
  +1.79995956032882247655e+02
  +1.79995457314372316660e+02
  +1.79994897091813129464e+02
  +1.79994267780244314281e+02
  +1.79993560859285082643e+02
  +1.79992766757770596087e+02
  +1.79991874724163807286e+02
  +1.79990872680952321616e+02
  +1.79989747061133243733e+02
  +1.79988482624498885798e+02
  +1.79987062251241894728e+02
  +1.79985466710129287549e+02
  +1.79983674398049913634e+02
  +1.79981661047408920240e+02
  +1.79979399397419740581e+02
  +1.79976858824787370850e+02
  +1.79974004928790975555e+02
  +1.79970799065077102341e+02
  +1.79967197821825919846e+02
  +1.79963152431100752437e+02
  +1.79958608107306389456e+02
  +1.79953503303650506950e+02
  +1.79947768876314597719e+02
  +1.79941327144705894625e+02
  +1.79934090834625493471e+02
  +1.79925961889415873429e+02
  +1.79916830132098027661e+02
  +1.79906571759125455401e+02
  +1.79895047643562776329e+02
  +1.79882101422175907146e+02
  +1.79867557336923823641e+02
  +1.79851217796500009172e+02
  +1.79832860617630842626e+02
  +1.79812235898441315385e+02
  +1.79789062466845450672e+02
  +1.79763023834956214841e+02
  +1.79733763574937398744e+02
  +1.79700880011190292862e+02
  +1.79663920096305645302e+02
  +1.79622372300991031580e+02
  +1.79575658297066297564e+02
  +1.79523123141558812677e+02
  +1.79464023569886364839e+02
  +1.79397513863534953771e+02
  +1.79322628551778535666e+02
  +1.79238260905666635381e+02
  +1.79143135734806833170e+02
  +1.79035774321146476495e+02
  +1.78914448282974717586e+02
  +1.78777117525815384624e+02
  +1.78621344801289097859e+02
  +1.78444175032525492952e+02
  +1.78241960114733643650e+02
  +1.78010096715600752759e+02
  +1.77742620297604958068e+02
  +1.77431551627694801709e+02
  +1.77065796192929951758e+02
  +1.76629188164217396206e+02
  +1.76096778674573641865e+02
  +1.75427191203915356255e+02
  +1.74545114071329891203e+02
  +1.73294986775754296104e+02
  +1.71289814551839867818e+02
  +1.67213968458742414214e+02
  +1.52147244643565358047e+02
  +3.15023682729890204257e+01
  +6.85692512085781125108e+00
  +1.62511877893971523612e+00
  +1.79049596260381122192e+02
  +1.77281615936766598907e+02
  +1.75826352875775199891e+02
  +1.74491290543418557490e+02
  +1.73182115566988727551e+02
  +1.71843926784758764370e+02
  +1.70439957066363575677e+02
  +1.68942671361148768483e+02
  +1.67329722432235541874e+02
  +1.65582108018624722945e+02
  +1.63683475455838987500e+02
  +1.61620118007067702592e+02
  +1.59381445751832956148e+02
  +1.56960802673036994292e+02
  +1.54356516079137094266e+02
  +1.51573036483736416358e+02
  +1.48621976339237818365e+02
  +1.45522808140557543766e+02
  +1.42302966408085723060e+02
  +1.38997144419206165367e+02
  +1.35645701199065229048e+02
  +1.32292281470521857045e+02
  +1.28980948200978815521e+02
  +1.25753261760347228915e+02
  +1.22645755869843782193e+02
  +1.19688151660683502087e+02
  +1.16902463459260943068e+02
  +1.14302955451743528670e+02
  +1.11896767443032302936e+02
  +1.09684965850368442375e+02
  +1.07663783923772044204e+02
</dep>
<dep Vo.v acfrequency>
  -1.00000011448743775233e+00+j6.28318677173335957478e-05
  -1.00000014446677010227e+00+j7.05805513611905551655e-05
  -1.00000018229640241785e+00+j7.92848357056163440112e-05
  -1.00000023003199212113e+00+j8.90625700109979109983e-05
  -1.00000029026748826766e+00+j1.00046137558074655868e-04
  -1.00000036627608457351e+00+j1.12384248111274567643e-04
  -1.00000046218808891219e+00+j1.26243951517030454776e-04
  -1.00000058321536466899e+00+j1.41812899632300651797e-04
  -1.00000073593455085508e+00+j1.59301887845289324519e-04
  -1.00000092864444289908e+00+j1.78947709319562389078e-04
  -1.00000117181696190904e+00+j2.01016361944718026855e-04
  -1.00000147866622191017e+00+j2.25806651355034036181e-04
  -1.00000186586662009880e+00+j2.53654238114827518778e-04
  -1.00000235445897778241e+00+j2.84936184979378938961e-04
  -1.00000297099399371170e+00+j3.20076065953332181309e-04
  -1.00000374897515431627e+00+j3.59549706352084322367e-04
  -1.00000473067955120143e+00+j4.03891632875730906185e-04
  -1.00000596945559760975e+00+j4.53702321357824628865e-04
  -1.00000753262258923471e+00+j5.09656342211802339606e-04
  -1.00000950512980546492e+00+j5.72511515257323184806e-04
  -1.00001199417420560955e+00+j6.43119200900625826757e-04
  -1.00001513502798777822e+00+j7.22435870734738222465e-04
  -1.00001909839323377405e+00+j8.11536119485088453147e-04
  -1.00002409968416050567e+00+j9.11627302249294634885e-04
  -1.00003041074277909672e+00+j1.02406600603955353149e-03
  -1.00003837462680622572e+00+j1.15037659400249675859e-03
  -1.00004842427694606855e+00+j1.29227209520584485243e-03
  -1.00006110608356579839e+00+j1.45167775381208779585e-03
  -1.00007710964235485562e+00+j1.63075760030625288056e-03
  -1.00009730533021223842e+00+j1.83194446691973471079e-03
  -1.00012279176603535724e+00+j2.05797394194999223177e-03
  -1.00015495577176771747e+00+j2.31192284821277486626e-03
  -1.00019554814989564129e+00+j2.59725294482589805570e-03
  -1.00024677948744944445e+00+j2.91786069723698644751e-03
