<Qucs Dataset 0.0.19>
<indep acfrequency 100>
  +1.00000000000000002082e-03
  +1.32194114846602905552e-03
  +1.74752840000768380584e-03
  +2.31012970008316002174e-03
  +3.05385550883341492373e-03
  +4.03701725859655340817e-03
  +5.33669923120630874253e-03
  +7.05480231071864243020e-03
  +9.32603346883219622154e-03
  +1.23284673944206585317e-02
  +1.62975083462064337936e-02
  +2.15443469003188357858e-02
  +2.84803586843580085197e-02
  +3.76493580679246667153e-02
  +4.97702356433211007269e-02
  +6.57933224657567955473e-02
  +8.69749002617783012470e-02
  +1.14975699539773518199e-01
  +1.51991108295293275710e-01
  +2.00923300256504538952e-01
  +2.65608778294668335107e-01
  +3.51119173421513108835e-01
  +4.64158883361277752044e-01
  +6.13590727341317032639e-01
  +8.11130830789686618765e-01
  +1.07226722201032242943e+00
  +1.41747416292680394889e+00
  +1.87381742286038233125e+00
  +2.47707635599171061003e+00
  +3.27454916287772723749e+00
  +4.32876128108305646691e+00
  +5.72236765935021374219e+00
  +7.56463327554628239824e+00
  +9.99999999999999111822e+00
  +1.32194114846602772673e+01
  +1.74752840000768188133e+01
  +2.31012970008315683401e+01
  +3.05385550883341103656e+01
  +4.03701725859654843021e+01
  +5.33669923120630045332e+01
  +7.05480231071862959880e+01
  +9.32603346883219614938e+01
  +1.23284673944206573992e+02
  +1.62975083462064333162e+02
  +2.15443469003188255328e+02
  +2.84803586843579978449e+02
  +3.76493580679246463205e+02
  +4.97702356433210582054e+02
  +6.57933224657567279792e+02
  +8.69749002617782252855e+02
  +1.14975699539773427205e+03
  +1.51991108295293133779e+03
  +2.00923300256504376193e+03
  +2.65608778294668172748e+03
  +3.51119173421512459754e+03
  +4.64158883361276912183e+03
  +6.13590727341317051469e+03
  +8.11130830789686660864e+03
  +1.07226722201032243902e+04
  +1.41747416292680154584e+04
  +1.87381742286038206657e+04
  +2.47707635599170353089e+04
  +3.27454916287772430223e+04
  +4.32876128108304474154e+04
  +5.72236765935020812321e+04
  +7.56463327554629067890e+04
  +9.99999999999998253770e+04
  +1.32194114846602897160e+05
  +1.74752840000768017489e+05
  +2.31012970008315867744e+05
  +3.05385550883340823930e+05
  +4.03701725859655183740e+05
  +5.33669923120629508048e+05
  +7.05480231071863672696e+05
  +9.32603346883217222057e+05
  +1.23284673944206465967e+06
  +1.62975083462063921615e+06
  +2.15443469003188051283e+06
  +2.84803586843579215929e+06
  +3.76493580679246131331e+06
  +4.97702356433209218085e+06
  +6.57933224657566659153e+06
  +8.69749002617782913148e+06
  +1.14975699539773315191e+07
  +1.51991108295293282717e+07
  +2.00923300256504192948e+07
  +2.65608778294668383896e+07
  +3.51119173421512171626e+07
  +4.64158883361277356744e+07
  +6.13590727341315373778e+07
  +8.11130830789685845375e+07
  +1.07226722201031953096e+08
  +1.41747416292680263519e+08
  +1.87381742286037713289e+08
  +2.47707635599170595407e+08
  +3.27454916287771522999e+08
  +4.32876128108304798603e+08
  +5.72236765935021400452e+08
  +7.56463327554626941681e+08
  +9.99999999999999046326e+08
</indep>
<dep TdB acfrequency>
  -8.40364026499829606109e+01
  -8.16121602385570952265e+01
  -7.91879178367119891391e+01
  -7.67636754516095152212e+01
  -7.43394330957652584857e+01
  -7.19151907910505769905e+01
  -6.94909485756862466133e+01
  -6.70667065164642224318e+01
  -6.46424647301052317516e+01
  -6.22182234205820066109e+01
  -5.97939829443423462862e+01
  -5.73697439242879809740e+01
  -5.49455074489544514904e+01
  -5.25212754205797267559e+01
  -5.00970511633515869221e+01
  -4.76728404863001458125e+01
  -4.52486535406184557928e+01
  -4.28245080650351468421e+01
  -4.04004350561324372393e+01
  -3.79764886741428497885e+01
  -3.55527635437036266808e+01
  -3.31294249571798999909e+01
  -3.07067615635824111564e+01
  -2.82852771627202486115e+01
  -2.58658502618337422518e+01
  -2.34500103041180523178e+01
  -2.10404125144874569742e+01
  -1.86416440487074588361e+01
  -1.62615625013615705541e+01
  -1.39134305945727945186e+01
  -1.16190730273914955006e+01
  -9.41288084776682154597e+00
  -7.34523100531422556969e+00
  -5.48147274904299308673e+00
  -3.89076142627643273286e+00
  -2.62321254885394106182e+00
  -1.68687040280352218424e+00
  -1.04353408707911787801e+00
  -6.27415146850825999891e-01
  -3.70037618347589580825e-01
  -2.15591052629287904807e-01
  -1.24675734501402249443e-01
  -7.17814745752628213804e-02
  -4.12210894414701128907e-02
  -2.36360863330565447449e-02
  -1.35411774927339072228e-02
  -7.75392630516332469204e-03
  -4.43877593623059549244e-03
  -2.54058601266638362653e-03
  -1.45399861834637298547e-03
  -8.32091045031113250505e-04
  -4.76172600609083213671e-04
  -2.72489858860434648168e-04
  -1.55930808079517314998e-04
  -8.92300265422308946711e-05
  -5.10609261944131997014e-05
  -2.92190127467981942651e-05
  -1.67202174167845397967e-05
  -9.56793101843890450196e-06
  -5.47512448413952811847e-06
  -3.13306837150223193680e-06
  -1.79285719051494176801e-06
  -1.02593888953534550247e-06
  -5.87079981722859793887e-07
  -3.35948759061748899148e-07
  -1.92242235365970313132e-07
  -1.10008075191457129045e-07
  -6.29506648740131480319e-08
  -3.60226850654130986076e-08
  -2.06135039935532513039e-08
  -1.17958054684749931873e-08
  -6.74999284744021044595e-09
  -3.86259341812007937205e-09
  -2.21031859308232270230e-09
  -1.26482637022747179984e-09
  -7.23778873064280330817e-10
  -4.14173343103319977107e-10
  -2.37006136607401344083e-10
  -1.35623014898171928928e-10
  -7.76085923451686972878e-11
  -4.44116193086054371273e-11
  -2.54143682173529639037e-11
  -1.45406117044480812972e-11
  -8.32262820009611957981e-12
  -4.76184902984274282354e-12
  -2.72422509301389063002e-12
  -1.55835318595039156772e-12
  -8.92485070295158892018e-13
  -5.11575721006548892395e-13
  -2.93155549832209149995e-13
  -1.67310815446998534712e-13
  -9.54684191887764687105e-14
  -5.49666655935377136329e-14
  -3.13406426629819414612e-14
  -1.78400581312358454373e-14
  -9.16111093225623617019e-15
  -6.75029226587301487984e-15
  -2.41081866638321813491e-15
  -9.64327466553287135636e-16
  +0.00000000000000000000e+00
</dep>
<dep T acfrequency>
  +3.94784187562891003663e-09+j6.28318528237456459069e-05
  +6.89896566541392514237e-09+j8.30600114369504341667e-05
  +1.20561381322659151261e-08+j1.09800446344303909824e-04
  +2.10684435231200963746e-08+j1.45149726834338039161e-04
  +3.68177030196648034187e-08+j1.91879393568956745737e-04
  +6.43399799216126719518e-08+j2.53653258920396142487e-04
  +1.12435936827637303477e-07+j3.35314664282098100646e-04
  +1.96484976200395072575e-07+j4.43266215142470835792e-04
  +3.43363025478993201174e-07+j5.85971763455208575350e-04
  +6.00036484499355537992e-07+j7.74619987126131965410e-04
  +1.04858032727861423467e-06+j1.02400157609617539940e-03
  +1.83242246549752967127e-06+j1.35366875847104436298e-03
  +3.20220591287778688638e-06+j1.78946798202432567036e-03
  +5.59593238005362502688e-06+j2.36556569675151805512e-03
  +9.77900985219548635771e-06+j3.12712555279917332057e-03
  +1.70889725183087662027e-05+j4.13384572589047157021e-03
  +2.98630833171387159882e-05+j5.46463095857901634544e-03
  +5.21854212472305816666e-05+j7.22375926571610510463e-03
  +9.11919482902590088818e-05+j9.54901211219396674201e-03
  +1.59349656850871202168e-04+j1.26223715892733283350e-02
  +2.78434884162059848294e-04+j1.66840450184404728851e-02
  +4.86471614405203944299e-04+j2.20507360370035196406e-02
  +8.49813925991504980940e-04+j2.91391788196329673544e-02
  +1.48413116116454793167e-03+j3.84958246549030810857e-02
  +2.59068716690968869898e-03+j5.08328191910787791086e-02
  +4.51854872297872099673e-03+j6.70681104580767711854e-02
  +7.86971035723951252427e-03+j8.83616320363796031723e-02
  +1.36721116135142036624e-02+j1.16125729179806042035e-01
  +2.36506864181386319834e-02+j1.51958321424295245139e-01
  +4.06122396763279880361e-02+j1.97390186343699897131e-01
  +6.88799300272251030508e-02+j2.53249847515590265079e-01
  +1.14475332918885536193e-01+j3.18387705591776593028e-01
  +1.84279446639502714200e-01+j3.87711919065872268053e-01
  +2.83043199675101830870e-01+j4.50477243368388402533e-01
  +4.08247804060805852266e-01+j4.91509445016406310014e-01
  +5.46611475666919144345e-01+j4.97822629393393667474e-01
  +6.78130003172143336343e-01+j4.67193431000364312045e-01
  +7.86405588850810355339e-01+j4.09843675899751569425e-01
  +8.65482887451362370435e-01+j3.41207061738491634895e-01
  +9.18324641971921429295e-01+j2.73869483365824728516e-01
  +9.51570335433026270877e-01+j2.14672383312115938603e-01
  +9.71700500779952180963e-01+j1.65827131567612640062e-01
  +9.83607547495774392488e-01+j1.26979289670097028608e-01
  +9.90553395566953320817e-01+j9.67334797147925279370e-02
  +9.94572373077917126771e-01+j7.34722246027540298874e-02
  +9.96886884480929214014e-01+j5.57083838469205061550e-02
  +9.98216185379619869167e-01+j4.21975428879496280987e-02
  +9.98978456201292774885e-01+j3.19452695555164159491e-02
  +9.99415179526171648661e-01+j2.41759893043022346115e-02
  +9.99665260483393991464e-01+j1.82928255352191246330e-02
  +9.99808422309719446730e-01+j1.38398333902247996918e-02
  +9.99890363217365907289e-01+j1.04701844496598531903e-02
  +9.99937258859607269734e-01+j7.92068203767794243308e-03
  +9.99964096249132960992e-01+j5.99186630254772926302e-03
  +9.99979454238170806235e-01+j4.53269673602477683738e-03
  +9.99988242856366893463e-01+j3.42884899092824567413e-03
  +9.99993272096314278485e-01+j2.59381156234839756886e-03
  +9.99996150035073472218e-01+j1.96212897241249996372e-03
  +9.99997796904893321290e-01+j1.48428105598556563105e-03
  +9.99998739306792838732e-01+j1.12280524477227096856e-03
  +9.99999278584607353970e-01+j8.49361449698337028086e-04
  +9.99999587179461246755e-01+j6.42510986811094860632e-04
  +9.99999763768868454861e-01+j4.86036084902372478994e-04
  +9.99999864819847594788e-01+j3.67668511250141536763e-04
  +9.99999922644942418337e-01+j2.78127761540103738899e-04
  +9.99999955734590439960e-01+j2.10393458941792572091e-04
  +9.99999974669704805308e-01+j1.59154939060453964363e-04
  +9.99999985505073740732e-01+j1.20394876102947878801e-04
  +9.99999991705470159253e-01+j9.10743091620602263428e-05
  +9.99999995253565199249e-01+j6.88943752079147813056e-05
  +9.99999997283915420532e-01+j5.21160684253903203392e-05
  +9.99999998445756599352e-01+j3.94238945859397277435e-05
  +9.99999999110604886887e-01+j2.98227305034705261061e-05
  +9.99999999491055335810e-01+j2.25598019620030972856e-05
  +9.99999999708763076534e-01+j1.70656628648656751945e-05
  +9.99999999833343644617e-01+j1.29095481192900016156e-05
  +9.99999999904633063430e-01+j9.76559972824091904891e-06
  +9.99999999945427431314e-01+j7.38731806629305442406e-06
  +9.99999999968771646763e-01+j5.58823520626293188227e-06
  +9.99999999982129961218e-01+j4.22729499934404903244e-06
  +9.99999999989773957765e-01+j3.19779364178329310466e-06
  +9.99999999994148236482e-01+j2.41901361910700228968e-06
  +9.99999999996651678380e-01+j1.82989509171422572619e-06
  +9.99999999998083755059e-01+j1.38424853015601127824e-06
  +9.99999999998903543741e-01+j1.04713324928527679264e-06
  +9.99999999999372612969e-01+j7.92117902147804325728e-07
  +9.99999999999641064896e-01+j5.99208144074479945349e-07
  +9.99999999999794497718e-01+j4.53278986564484852462e-07
  +9.99999999999882316359e-01+j3.42888930487189692190e-07
  +9.99999999999932609462e-01+j2.59382901338000952578e-07
  +9.99999999999961475261e-01+j1.96213652656923543298e-07
  +9.99999999999978017584e-01+j1.48428432600507253264e-07
  +9.99999999999987343458e-01+j1.12280666028698539115e-07
  +9.99999999999992783550e-01+j8.49362062441198914071e-08
  +9.99999999999995892175e-01+j6.42511252052932719614e-08
  +9.99999999999997779554e-01+j4.86036199719254115532e-08
  +9.99999999999998556710e-01+j3.67668560951632993304e-08
  +9.99999999999999333866e-01+j2.78127783054693838281e-08
  +9.99999999999999666933e-01+j2.10393468254946051610e-08
  +9.99999999999999888978e-01+j1.59154943091895474421e-08
</dep>
<dep PhRad acfrequency>
  +1.57073716799800133792e+00
  +1.57071693979253113049e+00
  +1.57069019929628961307e+00
  +1.57065484993253656754e+00
  +1.57060812015308792766e+00
  +1.57054634613696486589e+00
  +1.57046468452616450051e+00
  +1.57035673269000275454e+00
  +1.57021402673212961965e+00
  +1.57002537789160756532e+00
  +1.56977599531359590657e+00
  +1.56944632642234616071e+00
  +1.56901052401320306728e+00
  +1.56843441994645904636e+00
  +1.56767284674755780216e+00
  +1.56666609751120833316e+00
  +1.56533524746607555223e+00
  +1.56357597251429569774e+00
  +1.56125038498567025869e+00
  +1.55817625780630852894e+00
  +1.55411281832299730254e+00
  +1.54874205822630384155e+00
  +1.54164423318345789049e+00
  +1.53226595138696120024e+00
  +1.51987908474868449460e+00
  +1.50352896539090963302e+00
  +1.48197163481513438654e+00
  +1.45360382640854046699e+00
  +1.41639910044420247459e+00
  +1.36788512785717886189e+00
  +1.30523918927813009638e+00
  +1.22564472897541043572e+00
  +1.12710594136504327345e+00
  +1.00981657207116382047e+00
  +8.77675316628244162054e-01
  +7.38720636794348406440e-01
  +6.03268471172112352718e-01
  +4.80433619307138626287e-01
  +3.75530985095158365006e-01
  +2.89830354381142463183e-01
  +2.21884092050410292041e-01
  +1.69028668240002233336e-01
  +1.28385715173319786553e-01
  +9.73475508065743677655e-02
  +7.37394100114318884476e-02
  +5.58244208602176536504e-02
  +4.22478951325628432345e-02
  +3.19671177647809570677e-02
  +2.41854760147857221486e-02
  +1.82969516359007718098e-02
  +1.38416336310704622681e-02
  +1.04709742806481567040e-02
  +7.92103187883183221252e-03
  +5.99202373890920115401e-03
  +4.53276942174551424058e-03
  +3.42888388503108116484e-03
  +2.59382926184086731736e-03
  +1.96213859683599511213e-03
  +1.48428670689749282394e-03
  +1.12280881405780520212e-03
  +8.49363844371016037983e-04
  +6.42512666109565323477e-04
  +4.86037298010926085111e-04
  +3.67669404153460094471e-04
  +2.78128426266888639437e-04
  +2.10393957142003204270e-04
  +1.59155313921567414474e-04
  +1.20395158801952207824e-04
  +9.10745226370256465197e-05
  +6.88945365309351261942e-05
  +5.21161903897966071646e-05
  +3.94239868170041883166e-05
  +2.98228002596700711750e-05
  +2.25598547242880050404e-05
  +1.70657027751224017059e-05
  +1.29095783088634261175e-05
  +9.76562256508196626606e-06
  +7.38733534132491650580e-06
  +5.58824827410404837688e-06
  +4.22730488464897852886e-06
  +3.19780111963765830446e-06
  +2.41901927582254414810e-06
  +1.82989937080903323475e-06
  +1.38425176713298658301e-06
  +1.04713569793907885275e-06
  +7.92119754464359538213e-07
  +5.99209545283917735325e-07
  +4.53280046527992483128e-07
  +3.42889732310691634600e-07
  +2.59383507888066664423e-07
  +1.96214111489800790324e-07
  +1.48428779690750740460e-07
  +1.12280928589738392812e-07
  +8.49364048619174702044e-08
  +6.42512754523731944506e-08
  +4.86037336283313900440e-08
  +3.67669420720663529296e-08
  +2.78128433438435407006e-08
  +2.10393960246395344668e-08
  +1.59155315265384318778e-08
</dep>
<dep Ph acfrequency>
  +8.99963999998854831119e+01
  +8.99952410117951302482e+01
  +8.99937088978011701101e+01
  +8.99916835331858209202e+01
  +8.99890061203067972428e+01
  +8.99854667381760009448e+01
  +8.99807878834700858306e+01
  +8.99746027133309382862e+01
  +8.99664262833534991159e+01
  +8.99556175262571144913e+01
  +8.99413289904657631268e+01
  +8.99224403985301421471e+01
  +8.98974708181743551449e+01
  +8.98644625637772520577e+01
  +8.98208277357271498431e+01
  +8.97631453883427212759e+01
  +8.96868934759019680314e+01
  +8.95860946818733197006e+01
  +8.94528486431820368807e+01
  +8.92767145419962844244e+01
  +8.90438971537240604448e+01
  +8.87361759869921939980e+01
  +8.83295015192966701534e+01
  +8.77921668097953329379e+01
  +8.70824532896496208423e+01
  +8.61456626465379997626e+01
  +8.49105214752750896423e+01
  +8.32851695803212663805e+01
  +8.11535007893928082012e+01
  +7.83738614127489796601e+01
  +7.47845219219707928460e+01
  +7.02241059382397168065e+01
  +6.45782624922675694279e+01
  +5.78580923646579776687e+01
  +5.02869738327870976491e+01
  +4.23254757521590008196e+01
  +3.45646564842692356478e+01
  +2.75267543529682185977e+01
  +2.15162902078967732677e+01
  +1.66060172487285591103e+01
  +1.27129922870746927543e+01
  +9.68460666004596504308e+00
  +7.35594242780671070392e+00
  +5.57759076431862332868e+00
  +4.22494709767562426350e+00
  +3.19849622957702361958e+00
  +2.42062042394363130526e+00
  +1.83157664809669351591e+00
  +1.38572246074020566375e+00
  +1.04833565522731686492e+00
  +7.93065334094946172705e-01
  +5.99941230747602638473e-01
  +4.53840634768821582501e-01
  +3.43316868157517274263e-01
  +2.59707950061813241938e-01
  +1.96460115643492028159e-01
  +1.48615121954213169619e-01
  +1.12421997526890471431e-01
  +8.50431650246844667018e-02
  +6.43320558092707328601e-02
  +4.86648497538779284399e-02
  +3.68131779665526390199e-02
  +2.78478207416496988114e-02
  +2.10658558529484389588e-02
  +1.59355477234657365304e-02
  +1.20546575902599241437e-02
  +9.11890645081555109575e-03
  +6.89811834235784255426e-03
  +5.21817356591056016185e-03
  +3.94735694409483178074e-03
  +2.98603077099674971140e-03
  +2.25882277408350970460e-03
  +1.70871659241807129399e-03
  +1.29258143951229971351e-03
  +9.77790456939786221599e-04
  +7.39662622738546148352e-04
  +5.59527648877881965753e-04
  +4.23262147134735480618e-04
  +3.20182292251950848493e-04
  +2.42206162222057582844e-04
  +1.83220079429201196603e-04
  +1.38599270960038822203e-04
  +1.04845265707163861854e-04
  +7.93115985752284186885e-05
  +5.99963157719105518481e-05
  +4.53850126698448959892e-05
  +3.43320977053428831182e-05
  +2.59709728721156859479e-05
  +1.96460885586721731939e-05
  +1.48615455245263550612e-05
  +1.12422141800878990414e-05
  +8.50432274775118828372e-06
  +6.43320828436239845538e-06
  +4.86648614564080238953e-06
  +3.68131830322993918741e-06
  +2.78478229344908674272e-06
  +2.10658568021770527338e-06
  +1.59355481343641378228e-06
  +1.20546577681280761236e-06
  +9.11890652781040799873e-07
</dep>
<dep Vc1.v acfrequency>
  +3.94784187562891020207e-08+j6.28318528237456486174e-04
  +6.89896566541392530780e-08+j8.30600114369504450088e-04
  +1.20561381322659144644e-07+j1.09800446344303923377e-03
  +2.10684435231200950511e-07+j1.45149726834338044582e-03
  +3.68177030196648047422e-07+j1.91879393568956751158e-03
  +6.43399799216126666579e-07+j2.53653258920396142487e-03
  +1.12435936827637306124e-06+j3.35314664282098089804e-03
  +1.96484976200395067281e-06+j4.43266215142470824950e-03
  +3.43363025478993222350e-06+j5.85971763455208575350e-03
  +6.00036484499355537992e-06+j7.74619987126131878674e-03
  +1.04858032727861427702e-05+j1.02400157609617535603e-02
  +1.83242246549752962892e-05+j1.35366875847104453645e-02
  +3.20220591287778688638e-05+j1.78946798202432554026e-02
  +5.59593238005362536569e-05+j2.36556569675151831533e-02
  +9.77900985219548601890e-05+j3.12712555279917314710e-02
  +1.70889725183087648475e-04+j4.13384572589047122326e-02
  +2.98630833171387166658e-04+j5.46463095857901634544e-02
  +5.21854212472305789561e-04+j7.22375926571610510463e-02
  +9.11919482902590061713e-04+j9.54901211219396639507e-02
  +1.59349656850871213010e-03+j1.26223715892733290289e-01
  +2.78434884162059859136e-03+j1.66840450184404742728e-01
  +4.86471614405203922615e-03+j2.20507360370035210284e-01
  +8.49813925991504959256e-03+j2.91391788196329659666e-01
  +1.48413116116454801841e-02+j3.84958246549030824735e-01
  +2.59068716690968869898e-02+j5.08328191910787818841e-01
  +4.51854872297872134368e-02+j6.70681104580767684098e-01
  +7.86971035723951217733e-02+j8.83616320363796114989e-01
  +1.36721116135142040093e-01+j1.16125729179806036484e+00
  +2.36506864181386333712e-01+j1.51958321424295239588e+00
  +4.06122396763279880361e-01+j1.97390186343699891580e+00
  +6.88799300272251002752e-01+j2.53249847515590253977e+00
  +1.14475332918885541744e+00+j3.18387705591776626335e+00
  +1.84279446639502708649e+00+j3.87711919065872256951e+00
  +2.83043199675101853074e+00+j4.50477243368388435840e+00
