<Qucs Dataset 0.0.19>
<indep acfrequency 100>
  +1.00000000000000002082e-03
  +1.32194114846602905552e-03
  +1.74752840000768380584e-03
  +2.31012970008316002174e-03
  +3.05385550883341492373e-03
  +4.03701725859655340817e-03
  +5.33669923120630874253e-03
  +7.05480231071864243020e-03
  +9.32603346883219622154e-03
  +1.23284673944206585317e-02
  +1.62975083462064337936e-02
  +2.15443469003188357858e-02
  +2.84803586843580085197e-02
  +3.76493580679246667153e-02
  +4.97702356433211007269e-02
  +6.57933224657567955473e-02
  +8.69749002617783012470e-02
  +1.14975699539773518199e-01
  +1.51991108295293275710e-01
  +2.00923300256504538952e-01
  +2.65608778294668335107e-01
  +3.51119173421513108835e-01
  +4.64158883361277752044e-01
  +6.13590727341317032639e-01
  +8.11130830789686618765e-01
  +1.07226722201032242943e+00
  +1.41747416292680394889e+00
  +1.87381742286038233125e+00
  +2.47707635599171061003e+00
  +3.27454916287772723749e+00
  +4.32876128108305646691e+00
  +5.72236765935021374219e+00
  +7.56463327554628239824e+00
  +9.99999999999999111822e+00
  +1.32194114846602772673e+01
  +1.74752840000768188133e+01
  +2.31012970008315683401e+01
  +3.05385550883341103656e+01
  +4.03701725859654843021e+01
  +5.33669923120630045332e+01
  +7.05480231071862959880e+01
  +9.32603346883219614938e+01
  +1.23284673944206573992e+02
  +1.62975083462064333162e+02
  +2.15443469003188255328e+02
  +2.84803586843579978449e+02
  +3.76493580679246463205e+02
  +4.97702356433210582054e+02
  +6.57933224657567279792e+02
  +8.69749002617782252855e+02
  +1.14975699539773427205e+03
  +1.51991108295293133779e+03
  +2.00923300256504376193e+03
  +2.65608778294668172748e+03
  +3.51119173421512459754e+03
  +4.64158883361276912183e+03
  +6.13590727341317051469e+03
  +8.11130830789686660864e+03
  +1.07226722201032243902e+04
  +1.41747416292680154584e+04
  +1.87381742286038206657e+04
  +2.47707635599170353089e+04
  +3.27454916287772430223e+04
  +4.32876128108304474154e+04
  +5.72236765935020812321e+04
  +7.56463327554629067890e+04
  +9.99999999999998253770e+04
  +1.32194114846602897160e+05
  +1.74752840000768017489e+05
  +2.31012970008315867744e+05
  +3.05385550883340823930e+05
  +4.03701725859655183740e+05
  +5.33669923120629508048e+05
  +7.05480231071863672696e+05
  +9.32603346883217222057e+05
  +1.23284673944206465967e+06
  +1.62975083462063921615e+06
  +2.15443469003188051283e+06
  +2.84803586843579215929e+06
  +3.76493580679246131331e+06
  +4.97702356433209218085e+06
  +6.57933224657566659153e+06
  +8.69749002617782913148e+06
  +1.14975699539773315191e+07
  +1.51991108295293282717e+07
  +2.00923300256504192948e+07
  +2.65608778294668383896e+07
  +3.51119173421512171626e+07
  +4.64158883361277356744e+07
  +6.13590727341315373778e+07
  +8.11130830789685845375e+07
  +1.07226722201031953096e+08
  +1.41747416292680263519e+08
  +1.87381742286037713289e+08
  +2.47707635599170595407e+08
  +3.27454916287771522999e+08
  +4.32876128108304798603e+08
  +5.72236765935021400452e+08
  +7.56463327554626941681e+08
  +9.99999999999999046326e+08
</indep>
<dep TdB acfrequency>
  -1.53979669860417544669e+02
  -1.51555427436175051525e+02
  -1.49131185011932529960e+02
  -1.46706942587689923130e+02
  -1.44282700163447145769e+02
  -1.41858457739204141035e+02
  -1.39434215314960681553e+02
  -1.37009972890716426264e+02
  -1.34585730466470863576e+02
  -1.32161488042222885042e+02
  -1.29737245617970813782e+02
  -1.27313003193711509198e+02
  -1.24888760769439585374e+02
  -1.22464518345145592093e+02
  -1.20040275920813058974e+02
  -1.17616033496413180615e+02
  -1.15191791071895593745e+02
  -1.12767548647172318965e+02
  -1.10343306222089609037e+02
  -1.07919063796378722486e+02
  -1.05494821369570132674e+02
  -1.03070578940843262217e+02
  -1.00646336508764164819e+02
  -9.82220940708269267816e+01
  -9.57978516226523879595e+01
  -9.33736091565879320342e+01
  -9.09493666592603489107e+01
  -8.85251241072995043169e+01
  -8.61008814598655050077e+01
  -8.36766386455894632945e+01
  -8.12523955397521717714e+01
  -7.88281519244032296001e+01
  -7.64039074186679698641e+01
  -7.39796613569565550961e+01
  -7.15554125761302515230e+01
  -6.91311590435662708387e+01
  -6.67068972071837436033e+01
  -6.42826208595753314512e+01
  -6.18583191529824887311e+01
  -5.94339731302178222450e+01
  -5.70095496617715724597e+01
  -5.45849908489557265057e+01
  -5.21601955001694861380e+01
  -4.97349867435655639269e+01
  -4.73090553786042420370e+01
  -4.48818607264445930127e+01
  -4.24524568896333960311e+01
  -4.00191876861070312543e+01
  -3.75791490901541038738e+01
  -3.51272361440026799073e+01
  -3.26544350303513226663e+01
  -3.01447058754654726442e+01
  -2.75691133275763533561e+01
  -2.48741830972044830617e+01
  -2.19567428224459249009e+01
  -1.86015621938320805384e+01
  -1.42890331299466559756e+01
  -7.37477541166882222257e+00
  -1.70316514625770243363e+00
  -1.13428955086096987515e+01
  -1.66064372513077209703e+01
  -2.03431116694980147486e+01
  -2.34424268686220500513e+01
  -2.62317076723665749682e+01
  -2.88584430588510443272e+01
  -3.13965616670361526985e+01
  -3.38853311853266632170e+01
  -3.63462928931131372678e+01
  -3.87914807249926951727e+01
  -4.12276871412425478525e+01
  -4.36587687024105903788e+01
  -4.60869224112908781876e+01
  -4.85134022570878187253e+01
  -5.09389247676919936225e+01
  -5.33638996230617124183e+01
  -5.57885611446889981835e+01
  -5.82130433831427112068e+01
  -6.06374230350383385257e+01
  -6.30617439850541856572e+01
  -6.54860313443250845467e+01
  -6.79102994819425873629e+01
  -7.03345566202908116793e+01
  -7.27588074644748132869e+01
  -7.51830547069138219740e+01
  -7.76072998883043538854e+01
  -8.00315438902878781846e+01
  -8.24557872173716788211e+01
  -8.48800301582530636324e+01
  -8.73042728781353218892e+01
  -8.97285154715536918957e+01
  -9.21527579926048190373e+01
  -9.45770004722447197310e+01
  -9.70012429281876507048e+01
  -9.94254853705702430489e+01
  -1.01849727805193168706e+02
  -1.04273970235375657012e+02
  -1.06698212663017244495e+02
  -1.09122455089204791534e+02
  -1.11546697514560264608e+02
  -1.13970939939439631416e+02
</dep>
<dep T acfrequency>
  +3.99975153695961625828e-16+j1.99993788327528194626e-08
  +6.98967940381141274497e-16+j2.64380018227766386705e-08
  +1.22146632651095279831e-15+j3.49494824927487502185e-08
  +2.13454709523104481155e-15+j4.62011590247586661545e-08
  +3.73018167007044596513e-15+j6.10752132216534487817e-08
  +6.51859840563708500377e-15+j8.07378375090455550642e-08
  +1.13914358420983379928e-14+j1.06730669641383837963e-07
  +1.99068576509405934038e-14+j1.41091664002308061382e-07
  +3.47877990999542566635e-14+j1.86514876350260749521e-07
  +6.07926669010091945034e-14+j2.46561689848616784364e-07
  +1.06236911921956978662e-13+j3.25940043446560444494e-07
  +1.85652020713456517455e-13+j4.30873555365634078052e-07
  +3.24432178717784170200e-13+j5.69589482625582622595e-07
  +5.66954446192427123112e-13+j7.52963774820612208712e-07
  +9.90768996252450415725e-13+j9.95373797249791453476e-07
  +1.73139695886103733973e-12+j1.31582558071274773665e-06
  +3.02566535748829575463e-12+j1.73944397940236690610e-06
  +5.28743614171562312669e-12+j2.29944257194818129177e-06
  +9.23994482266290767129e-12+j3.03972775468092425513e-06
  +1.61470659975670904581e-11+j4.01834119971243451848e-06
  +2.82174564242200122656e-11+j5.31201058201353704726e-06
  +4.93108065282211980200e-11+j7.02216537300209380353e-06
  +8.61720349908450654496e-11+j9.28288936610899562401e-06
  +1.50588078907814575214e-10+j1.22714334486700379380e-05
  +2.63156946044148626488e-10+j1.62221128702427998443e-05
  +4.59874241299971720681e-10+j2.14446786193798539415e-05
  +8.03643310627784578096e-10+j2.83486033162472011657e-05
  +1.40438955009889234557e-09+j3.74751857650710328896e-05
  +2.45421074959803507383e-09+j4.95399913562253696410e-05
  +4.28880336969794945243e-09+j6.54889559491072880499e-05
  +7.49480686685333588764e-09+j8.65725522939066638624e-05
  +1.30973914445204673933e-08+j1.14443834578271618992e-04
  +2.28880744851437751191e-08+j1.51288049631422715944e-04
  +3.99975936845780609500e-08+j1.99993980121329102814e-04
  +6.98970332010121095522e-08+j2.64380461296626209037e-04
  +1.22147363021410751319e-07+j3.49495848475246510562e-04
  +2.13456939975890448864e-07+j4.62013954780616110506e-04
  +3.73024978526928442830e-07+j6.10757594614503326706e-04
  +6.51880642171260252400e-07+j8.07390994018938076664e-04
  +1.13920711043454377733e-06+j1.06733584810110430398e-03
  +1.99087977098748282538e-06+j1.41098398551692282878e-03
  +3.47937240788903990845e-06+j1.86530434563818227518e-03
  +6.08107626346533626218e-06+j2.46597633483714015132e-03
  +1.06292182774058625465e-05+j3.26023086561744515621e-03
  +1.85820858472685868903e-05+j4.31065430687200320387e-03
  +3.24948044184912815217e-05+j5.70032880684764441809e-03
  +5.68531210519497744041e-05+j7.53988652265910695022e-03
  +9.95591617569928236456e-05+j9.97743703213922056294e-03
  +1.74616424402702539401e-04+j1.32130970444870095987e-02
  +3.07097573978323519842e-04+j1.75215086410497287994e-02
  +5.42695845534499235301e-04+j2.32895110887656672793e-02
  +9.67229229718947211905e-04+j3.10852649552183293857e-02
  +1.75020398056921076997e-03+j4.17988129807009001215e-02
  +3.25523008233426485586e-03+j5.69616850123425624841e-02
  +6.37273292134421086991e-03+j7.95746265869807789528e-02
  +1.37988781804926994440e-02+j1.16655343390059187958e-01
  +3.72474621070743860951e-02+j1.89367601964159776307e-01
  +1.83030075489183402526e-01+j3.86691177757661319614e-01
  +6.75590424370520525876e-01-j4.68153823939718105596e-01
  +7.34024319592031515569e-02-j2.60795925853295695873e-01
  +2.18452125598422169928e-02-j1.46177971144962642880e-01
  +9.24035875734363805478e-03-j9.56816310865320901469e-02
  +4.52644568196178872371e-03-j6.71264252843098846446e-02
  +2.38138291096897693200e-03-j4.87412753875021420580e-02
  +1.30063577101912470312e-03-j3.60408673259990999793e-02
  +7.25009727050245187004e-04-j2.69162420843981828322e-02
  +4.08758579712840562550e-04-j2.02136462850311011963e-02
  +2.31937360609242105083e-04-j1.52277235879167346932e-02
  +1.32084521585109092344e-04-j1.14920439985351056922e-02
  +7.53756874165155041877e-05-j8.68159005725690872957e-03
  +4.30648689300880386133e-05-j6.56224156421813392681e-03
  +2.46211173938832702190e-05-j4.96190600419451136038e-03
  +1.40818519582319347922e-05-j3.75255295228160094118e-03
  +8.05577862597214721535e-06-j2.83825892589151859008e-03
  +4.60903533557161531638e-06-j2.14686145159972800733e-03
  +2.63720496999926134075e-06-j1.62394520078394536192e-03
  +1.50902231373975772842e-06-j1.22842176657344138296e-03
  +8.63490763668599660009e-07-j9.29241635987271556892e-04
  +4.94112227780095480968e-07-j7.02930994929944793874e-04
  +2.82746257735718195424e-07-j5.31738824791148814546e-04
  +1.61796846149705820768e-07-j4.02239754339978755355e-04
  +9.25857902935547115835e-08-j3.04279118115959685761e-04
  +5.29808904916218081053e-08-j2.30175775625166630263e-04
  +3.03175797960088293481e-08-j1.74119438538186183845e-04
  +1.73488227994232054371e-08-j1.31714928912563114050e-04
  +9.92763064492882385029e-09-j9.96374956849627836175e-05
  +5.68095407265538423146e-09-j7.53721038606601940199e-05
  +3.25085039923883948583e-09-j5.70162291691656092862e-05
  +1.86025599236471050559e-09-j4.31306850038827745142e-05
  +1.06450683141501281373e-09-j3.26267808752539736016e-05
  +6.09149932946084204229e-10-j2.46809629588276140686e-05
  +3.48577983152231869402e-10-j1.86702432504433467472e-05
  +1.99469136299198623019e-10-j1.41233542849923108837e-05
  +1.14143572982936007746e-10-j1.06837995568012802212e-05
  +6.53171488999025663563e-11-j8.08190255420320174257e-06
  +3.73768739954541735477e-11-j6.11366289502922706988e-06
  +2.13884214791791401123e-11-j4.62476177534818316491e-06
  +1.22392411302188845365e-11-j3.49846268095989392850e-06
  +7.00374376006037210049e-12-j2.64645872063240725000e-06
  +4.00779967810673989043e-12-j2.00194896990174992104e-06
</dep>
<dep PhRad acfrequency>
  +1.57079998000057430296e+00
  +1.57079997356193645786e+00
  +1.57079996505043584243e+00
  +1.57079995379873316175e+00
  +1.57079993892464431227e+00
  +1.57079991926197370944e+00
  +1.57079989326908053826e+00
  +1.57079985890800633008e+00
  +1.57079981348468766811e+00
  +1.57079975343773381447e+00
  +1.57079967405919429524e+00
  +1.57079956912543727832e+00
  +1.57079943040918568187e+00
  +1.57079924703446449641e+00
  +1.57079900462387533899e+00
  +1.57079868417134238534e+00
  +1.57079826055195304058e+00
  +1.57079770055205125701e+00
  +1.57079696026513726537e+00
  +1.57079598164940370530e+00
  +1.57079468797699606242e+00
  +1.57079297781820592661e+00
  +1.57079071708892592518e+00
  +1.57078772853785397778e+00
  +1.57078377784919265281e+00
  +1.57077855527122700607e+00
  +1.57077165133037732758e+00
  +1.57076252472656685555e+00
  +1.57075045989271644409e+00
  +1.57073451089072202436e+00
  +1.57071342724482931885e+00
  +1.57068555589680292073e+00
  +1.57064871159428309788e+00
  +1.57060000554687295704e+00
  +1.57053561890814741275e+00
  +1.57045050330579138986e+00
  +1.57033798489908327234e+00
  +1.57018924082528288366e+00
  +1.56999260676706708928e+00
  +1.56973266084538987108e+00
  +1.56938901084224879945e+00
  +1.56893468696572102594e+00
  +1.56833400790137189595e+00
  +1.56753973840782401261e+00
  +1.56648928221139249750e+00
  +1.56509953437242543828e+00
  +1.56325981005475211916e+00
  +1.56082187735179656052e+00
  +1.55758533368987195367e+00
  +1.55327486228758959719e+00
  +1.54750200468996412795e+00
  +1.53969460239953459535e+00
  +1.52895224980546284854e+00
  +1.51371424308432933614e+00
  +1.49088538162148243060e+00
  +1.45305925098630872583e+00
  +1.37658488944019241629e+00
  +1.12871927813118233530e+00
  -6.05983589526693400273e-01
  -1.29644153727327826608e+00
  -1.42245490798820051204e+00
  -1.47452433007715244528e+00
  -1.50347011815546327540e+00
  -1.52198108163862766418e+00
  -1.53472776507453767536e+00
  -1.54387067770131358735e+00
  -1.55058079629766076835e+00
  -1.55556988577520982631e+00
  -1.55930691707133606272e+00
  -1.56211795336020187186e+00
  -1.56423755468209302322e+00
  -1.56583800094580261053e+00
  -1.56704740304354128710e+00
  -1.56796171919396676309e+00
  -1.56865312693142433531e+00
  -1.56917604814659572554e+00
  -1.56957157412502712468e+00
  -1.56987075565611200467e+00
  -1.57009706712975960485e+00
  -1.57026825983154028066e+00
  -1.57039775926166091935e+00
  -1.57049572015156568838e+00
  -1.57056982367799369271e+00
  -1.57062588015077531090e+00
  -1.57066828476155717631e+00
  -1.57070036227065967793e+00
  -1.57072462771960141836e+00
  -1.57074298363737852036e+00
  -1.57075686921408430585e+00
  -1.57076737314280623359e+00
  -1.57077531897931654825e+00
  -1.57078132971308614962e+00
  -1.57078587661268676001e+00
  -1.57078931617545891619e+00
  -1.57079191807854634533e+00
  -1.57079388632280880778e+00
  -1.57079537522740975142e+00
  -1.57079650152913830041e+00
  -1.57079735353509075679e+00
  -1.57079799804634845373e+00
</dep>
<dep Ph acfrequency>
  +8.99999988541199940073e+01
  +8.99999984852140926250e+01
  +8.99999979975421524614e+01
  +8.99999973528685899282e+01
  +8.99999965006480664442e+01
  +8.99999953740626637000e+01
  +8.99999938847830804889e+01
  +8.99999919160431431919e+01
  +8.99999893134847752663e+01
  +8.99999858730557917852e+01
  +8.99999813250111344587e+01
  +8.99999753127637802663e+01
  +8.99999673649266043185e+01
  +8.99999568583535847210e+01
  +8.99999429692823866844e+01
  +8.99999246087476620914e+01
  +8.99999003372012822410e+01
  +8.99998682516454096003e+01
  +8.99998258364287977429e+01
  +8.99997697660086117821e+01
  +8.99996956442129203424e+01
  +8.99995976595610756021e+01
  +8.99994681296176111118e+01
  +8.99992968986547481336e+01
  +8.99990705413976002092e+01
  +8.99987713104217164073e+01
  +8.99983757446740213481e+01
  +8.99978528300171944920e+01
  +8.99971615675735279183e+01
  +8.99962477592086713685e+01
  +8.99950397581070973274e+01
  +8.99934428512301138881e+01
  +8.99913318331331026911e+01
  +8.99885411887054686986e+01
  +8.99848521146761299860e+01
  +8.99799753612943931103e+01
  +8.99735285465479250888e+01
  +8.99650061588206426677e+01
  +8.99537398835218056092e+01
  +8.99388461141361688078e+01
  +8.99191564653694825893e+01
  +8.98931256855837119701e+01
  +8.98587093908349174853e+01
  +8.98132012074765384568e+01
  +8.97530146416000178533e+01
  +8.96733881420411762520e+01
  +8.95679799496611224185e+01
  +8.94282970216842869604e+01
  +8.92428571632852651874e+01
  +8.89958859217488367221e+01
  +8.86651263191346998838e+01
  +8.82177961649847901526e+01
  +8.76023061385864991735e+01
  +8.67292347068943456634e+01
  +8.54212403526441477197e+01
  +8.32539677799642134914e+01
  +7.88723198686130189117e+01
  +6.46706996637422975027e+01
  -3.47202209430878596663e+01
  -7.42804547711962328549e+01
  -8.15004721918373036260e+01
  -8.44838233428467759722e+01
  -8.61422909561953815683e+01
  -8.72028885583629289613e+01
  -8.79332180142019268487e+01
  -8.84570670951860478226e+01
  -8.88415276717529138750e+01
  -8.91273807739807040207e+01
  -8.93414963944615720948e+01
  -8.95025565332430375065e+01
  -8.96240004592490322466e+01
  -8.97156990610658482410e+01
  -8.97849925349622566273e+01
  -8.98373788690202559337e+01
  -8.98769935216629676233e+01
  -8.99069546302480233635e+01
  -8.99296165465065229228e+01
  -8.99467583454609780347e+01
  -8.99597250074346703741e+01
  -8.99695336037933799389e+01
  -8.99769533572380311170e+01
  -8.99825660896619012874e+01
  -8.99868118990447243277e+01
  -8.99900236908389246082e+01
  -8.99924532903871607914e+01
  -8.99942911919782062569e+01
  -8.99956814965394187311e+01
  -8.99967332106977693229e+01
  -8.99975287937787129522e+01
  -8.99981306231554327724e+01
  -8.99985858849875768328e+01
  -8.99989302738590168929e+01
  -8.99991907914068036689e+01
  -8.99993878633761852370e+01
  -8.99995369410931829179e+01
  -8.99996497129187531527e+01
  -8.99997350206690214236e+01
  -8.99997995528536023357e+01
  -8.99998483690846597938e+01
  -8.99998852967732148045e+01
</dep>
<dep Vc.v acfrequency>
  +3.99975153695961655411e-15+j1.99993788327528194626e-07
  +6.98967940381141274497e-15+j2.64380018227766366853e-07
  +1.22146632651095299553e-14+j3.49494824927487488950e-07
  +2.13454709523104489044e-14+j4.62011590247586714484e-07
  +3.73018167007044659622e-14+j6.10752132216534487817e-07
  +6.51859840563708531932e-14+j8.07378375090455603581e-07
  +1.13914358420983386239e-13+j1.06730669641383835316e-06
  +1.99068576509405915105e-13+j1.41091664002308050794e-06
  +3.47877990999542554013e-13+j1.86514876350260744227e-06
  +6.07926669010091970278e-13+j2.46561689848616794952e-06
  +1.06236911921956973613e-12+j3.25940043446560402142e-06
  +1.85652020713456522504e-12+j4.30873555365634088640e-06
  +3.24432178717784170200e-12+j5.69589482625582643771e-06
  +5.66954446192427082723e-12+j7.52963774820612208712e-06
  +9.90768996252450375335e-12+j9.95373797249791411124e-06
  +1.73139695886103725895e-11+j1.31582558071274777900e-05
  +3.02566535748829591619e-11+j1.73944397940236677904e-05
  +5.28743614171562280357e-11+j2.29944257194818129177e-05
  +9.23994482266290734818e-11+j3.03972775468092391632e-05
  +1.61470659975670917506e-10+j4.01834119971243417966e-05
  +2.82174564242200129119e-10+j5.31201058201353687785e-05
  +4.93108065282212031899e-10+j7.02216537300209397293e-05
  +8.61720349908450757894e-10+j9.28288936610899528519e-05
  +1.50588078907814585553e-09+j1.22714334486700386156e-04
  +2.63156946044148605808e-09+j1.62221128702427991666e-04
  +4.59874241299971751700e-09+j2.14446786193798566520e-04
  +8.03643310627784495378e-09+j2.83486033162472011657e-04
  +1.40438955009889255236e-08+j3.74751857650710315344e-04
  +2.45421074959803507383e-08+j4.95399913562253723515e-04
  +4.28880336969794928700e-08+j6.54889559491072907604e-04
  +7.49480686685333522589e-08+j8.65725522939066747044e-04
  +1.30973914445204670624e-07+j1.14443834578271627124e-03
  +2.28880744851437751191e-07+j1.51288049631422721365e-03
  +3.99975936845780649205e-07+j1.99993980121329108235e-03
