<Qucs Dataset 0.0.19>
<indep time 11>
  +0.00000000000000000000e+00
  +5.00000000000000010408e-03
  +1.00000000000000002082e-02
  +1.49999999999999994449e-02
  +2.00000000000000004163e-02
  +2.50000000000000013878e-02
  +2.99999999999999988898e-02
  +3.50000000000000033307e-02
  +4.00000000000000008327e-02
  +4.49999999999999983347e-02
  +5.00000000000000027756e-02
</indep>
<dep Pr1.Vt time>
  +9.99999990000000183171e-08
  +3.93481911258673200393e+00
  +6.32137764276762581517e+00
  +7.76886086362030781061e+00
  +8.64678095154343395734e+00
  +9.17925253371825000670e+00
  +9.50220446262841100804e+00
  +9.69807960766582688450e+00
  +9.81688079449541284305e+00
  +9.88893548009333400728e+00
  +9.93263771788377702876e+00
</dep>
<dep V1.It time>
  -9.99999990000000060775e-03
  -6.06518088741326774627e-03
  -3.67862235723237420565e-03
  -2.23113913637969230042e-03
  -1.35321904845656613980e-03
  -8.20747466281749465944e-04
  -4.97795537371588728282e-04
  -3.01920392334172754678e-04
  -1.83119205504587989619e-04
  -1.11064519906665590265e-04
  -6.73622821162223744951e-05
</dep>
<dep _net1.Vt time>
  +9.99999990000000183171e-08
  +3.93481911258673200393e+00
  +6.32137764276762581517e+00
  +7.76886086362030781061e+00
  +8.64678095154343395734e+00
  +9.17925253371825000670e+00
  +9.50220446262841100804e+00
  +9.69807960766582688450e+00
  +9.81688079449541284305e+00
  +9.88893548009333400728e+00
  +9.93263771788377702876e+00
</dep>
<dep _net0.Vt time>
  +1.00000000000000000000e+01
  +1.00000000000000000000e+01
  +1.00000000000000000000e+01
  +1.00000000000000000000e+01
  +1.00000000000000000000e+01
  +1.00000000000000000000e+01
  +1.00000000000000000000e+01
  +1.00000000000000000000e+01
  +1.00000000000000000000e+01
  +1.00000000000000000000e+01
  +1.00000000000000000000e+01
</dep>
