<Qucs Dataset 0.0.19>
<indep time 11>
  +0.00000000000000000000e+00
  +4.99999999999999956198e-06
  +9.99999999999999912396e-06
  +1.49999999999999986859e-05
  +1.99999999999999982479e-05
  +2.49999999999999978099e-05
  +2.99999999999999973719e-05
  +3.49999999999999969339e-05
  +3.99999999999999964959e-05
  +4.49999999999999960578e-05
  +4.99999999999999956198e-05
</indep>
<dep Pr1.Vt time>
  +9.99990000099998965766e+00
  +6.06518039294851973864e+00
  +3.67862565015929909862e+00
  +2.23114331269401056090e+00
  +1.35322290311427906317e+00
  +8.20750605796773058387e-01
  +4.97797927721638444609e-01
  +3.01922136997253787172e-01
  +1.83120442518109882712e-01
  +1.11065378648719459420e-01
  +6.73628687477823007157e-02
</dep>
<dep V1.It time>
  -9.99990000099998932626e-08
  -3.93481960705148025442e-03
  -6.32137434984070094302e-03
  -7.76885668730598923093e-03
  -8.64677709688572125601e-03
  -9.17924939420322952288e-03
  -9.50220207227836337338e-03
  -9.69807786300274678182e-03
  -9.81687955748188935401e-03
  -9.88893462135127972179e-03
  -9.93263713125221853195e-03
</dep>
<dep Pr2.It time>
  +9.99990000099998932626e-08
  +3.93481960705148025442e-03
  +6.32137434984070094302e-03
  +7.76885668730598923093e-03
  +8.64677709688572125601e-03
  +9.17924939420322778816e-03
  +9.50220207227836163866e-03
  +9.69807786300274678182e-03
  +9.81687955748188935401e-03
  +9.88893462135127972179e-03
  +9.93263713125221853195e-03
</dep>
<dep _net0.Vt time>
  +1.00000000000000000000e+01
  +1.00000000000000000000e+01
  +1.00000000000000000000e+01
  +1.00000000000000000000e+01
  +1.00000000000000000000e+01
  +1.00000000000000000000e+01
  +1.00000000000000000000e+01
  +1.00000000000000000000e+01
  +1.00000000000000000000e+01
  +1.00000000000000000000e+01
  +1.00000000000000000000e+01
</dep>
<dep _net1.Vt time>
  +9.99990000099998973919e-05
  +3.93481960705148026136e+00
  +6.32137434984070090138e+00
  +7.76885668730598943910e+00
  +8.64677709688572093683e+00
  +9.17924939420322694161e+00
  +9.50220207227836155539e+00
  +9.69807786300274621283e+00
  +9.81687955748189011729e+00
  +9.88893462135128054058e+00
  +9.93263713125221769928e+00
</dep>
<dep _net2.Vt time>
  +9.99990000099998973919e-05
  +3.93481960705148026136e+00
  +6.32137434984070090138e+00
  +7.76885668730598943910e+00
  +8.64677709688572093683e+00
  +9.17924939420322694161e+00
  +9.50220207227836155539e+00
  +9.69807786300274621283e+00
  +9.81687955748189011729e+00
  +9.88893462135128054058e+00
  +9.93263713125221769928e+00
</dep>
