<Qucs Dataset 0.0.19>
<indep acfrequency 100>
  +1.00000000000000002082e-03
  +1.32194114846602905552e-03
  +1.74752840000768380584e-03
  +2.31012970008316002174e-03
  +3.05385550883341492373e-03
  +4.03701725859655340817e-03
  +5.33669923120630874253e-03
  +7.05480231071864243020e-03
  +9.32603346883219622154e-03
  +1.23284673944206585317e-02
  +1.62975083462064337936e-02
  +2.15443469003188357858e-02
  +2.84803586843580085197e-02
  +3.76493580679246667153e-02
  +4.97702356433211007269e-02
  +6.57933224657567955473e-02
  +8.69749002617783012470e-02
  +1.14975699539773518199e-01
  +1.51991108295293275710e-01
  +2.00923300256504538952e-01
  +2.65608778294668335107e-01
  +3.51119173421513108835e-01
  +4.64158883361277752044e-01
  +6.13590727341317032639e-01
  +8.11130830789686618765e-01
  +1.07226722201032242943e+00
  +1.41747416292680394889e+00
  +1.87381742286038233125e+00
  +2.47707635599171061003e+00
  +3.27454916287772723749e+00
  +4.32876128108305646691e+00
  +5.72236765935021374219e+00
  +7.56463327554628239824e+00
  +9.99999999999999111822e+00
  +1.32194114846602772673e+01
  +1.74752840000768188133e+01
  +2.31012970008315683401e+01
  +3.05385550883341103656e+01
  +4.03701725859654843021e+01
  +5.33669923120630045332e+01
  +7.05480231071862959880e+01
  +9.32603346883219614938e+01
  +1.23284673944206573992e+02
  +1.62975083462064333162e+02
  +2.15443469003188255328e+02
  +2.84803586843579978449e+02
  +3.76493580679246463205e+02
  +4.97702356433210582054e+02
  +6.57933224657567279792e+02
  +8.69749002617782252855e+02
  +1.14975699539773427205e+03
  +1.51991108295293133779e+03
  +2.00923300256504376193e+03
  +2.65608778294668172748e+03
  +3.51119173421512459754e+03
  +4.64158883361276912183e+03
  +6.13590727341317051469e+03
  +8.11130830789686660864e+03
  +1.07226722201032243902e+04
  +1.41747416292680154584e+04
  +1.87381742286038206657e+04
  +2.47707635599170353089e+04
  +3.27454916287772430223e+04
  +4.32876128108304474154e+04
  +5.72236765935020812321e+04
  +7.56463327554629067890e+04
  +9.99999999999998253770e+04
  +1.32194114846602897160e+05
  +1.74752840000768017489e+05
  +2.31012970008315867744e+05
  +3.05385550883340823930e+05
  +4.03701725859655183740e+05
  +5.33669923120629508048e+05
  +7.05480231071863672696e+05
  +9.32603346883217222057e+05
  +1.23284673944206465967e+06
  +1.62975083462063921615e+06
  +2.15443469003188051283e+06
  +2.84803586843579215929e+06
  +3.76493580679246131331e+06
  +4.97702356433209218085e+06
  +6.57933224657566659153e+06
  +8.69749002617782913148e+06
  +1.14975699539773315191e+07
  +1.51991108295293282717e+07
  +2.00923300256504192948e+07
  +2.65608778294668383896e+07
  +3.51119173421512171626e+07
  +4.64158883361277356744e+07
  +6.13590727341315373778e+07
  +8.11130830789685845375e+07
  +1.07226722201031953096e+08
  +1.41747416292680263519e+08
  +1.87381742286037713289e+08
  +2.47707635599170595407e+08
  +3.27454916287771522999e+08
  +4.32876128108304798603e+08
  +5.72236765935021400452e+08
  +7.56463327554626941681e+08
  +9.99999999999999046326e+08
</indep>
<dep TdB acfrequency>
  -1.71452607075912923001e-08
  -2.99618275859436919166e-08
  -5.23591427618236676075e-08
  -9.14990872576268333570e-08
  -1.59897255425023256833e-07
  -2.79424992314218041845e-07
  -4.88303097541525589794e-07
  -8.53323493625590409659e-07
  -1.49120692846756721327e-06
  -2.60592612437674353684e-06
  -4.55392888611742470450e-06
  -7.95811694480468271478e-06
  -1.39070258458821268451e-05
  -2.43028935367337890056e-05
  -4.24699078310831039666e-05
  -7.42170988091866740567e-05
  -1.29695659537611032545e-04
  -2.26644318650072251016e-04
  -3.96059658364410227017e-04
  -6.92101911201522526293e-04
  -1.20939571440203692126e-03
  -2.11323343311344219800e-03
  -3.69226407804507236396e-03
  -6.45028745830637448289e-03
  -1.12658108142138311397e-02
  -1.96682773409579403356e-02
  -3.43129119527809250956e-02
  -5.97868704152075269853e-02
  -1.03947747311749980059e-01
  -1.80058264765393910567e-01
  -3.09943121826519785156e-01
  -5.27993366444267975268e-01
  -8.84585948234090979625e-01
  -1.44507011620528524887e+00
  -2.27860121768114831653e+00
  -3.43529476450108051111e+00
  -4.92319504269308527711e+00
  -6.70410115121110461445e+00
  -8.71222463522523327129e+00
  -1.08790895309644177757e+01
  -1.31488853894885409090e+01
  -1.54822124956030915399e+01
  -1.78535606599193812372e+01
  -2.02472426990280069958e+01
  -2.26539001201620173731e+01
  -2.50680476355641204123e+01
  -2.74865028086189724377e+01
  -2.99074300824924641518e+01
  -3.23297743168113171919e+01
  -3.47529301536594275035e+01
  -3.71765506703285311119e+01
  -3.96004371761265332452e+01
  -4.20244759176272069112e+01
  -4.44486017828188550993e+01
  -4.68727775062797320516e+01
  -4.92969817614218115409e+01
  -5.17212023437507966150e+01
  -5.41454322691978973126e+01
  -5.65696675411539189327e+01
  -5.89939058725897922386e+01
  -6.14181459547761150475e+01
  -6.38423870388073382287e+01
  -6.62666286961314767723e+01
  -6.86908706815149798786e+01
  -7.11151128546261901420e+01
  -7.35393551351621113099e+01
  -7.59635974771703530450e+01
  -7.83878398543553913669e+01
  -8.08120822516698211757e+01
  -8.32363246605030724368e+01
  -8.56605670759277870729e+01
  -8.80848094951244178219e+01
  -9.05090519164794216067e+01
  -9.29332943390695902508e+01
  -9.53575367623664931216e+01
  -9.77817791860678795501e+01
  -1.00206021610000689748e+02
  -1.02630264034065959322e+02
  -1.05054506458206986963e+02
  -1.07478748882391400343e+02
  -1.09902991306600611665e+02
  -1.12327233730824062263e+02
  -1.14751476155055627260e+02
  -1.17175718579291810784e+02
  -1.19599961003530694370e+02
  -1.22024203427771055885e+02
  -1.24448445852012326895e+02
  -1.26872688276254081075e+02
  -1.29296930700496119471e+02
  -1.31721173124738328397e+02
  -1.34145415548980622589e+02
  -1.36569657973222973624e+02
  -1.38993900397465381502e+02
  -1.41418142821707760959e+02
  -1.43842385245950168837e+02
  -1.46266627670192576716e+02
  -1.48690870094435013016e+02
  -1.51115112518677449316e+02
  -1.53539354942919857194e+02
  -1.55963597367162293494e+02
</dep>
<dep T acfrequency>
  +9.99999996052158057758e-01-j6.28318528237456459069e-05
  +9.99999993101034378995e-01-j8.30600114369504341667e-05
  +9.99999987943861912143e-01-j1.09800446344303909824e-04
  +9.99999978931556565698e-01-j1.45149726834338039161e-04
  +9.99999963182297002540e-01-j1.91879393568956745737e-04
  +9.99999935660019989569e-01-j2.53653258920396142487e-04
  +9.99999887564063105749e-01-j3.35314664282098100646e-04
  +9.99999803515023821809e-01-j4.43266215142470835792e-04
  +9.99999656636974543211e-01-j5.85971763455208575350e-04
  +9.99999399963515389622e-01-j7.74619987126131965410e-04
  +9.99998951419672765795e-01-j1.02400157609617539940e-03
  +9.99998167577534458061e-01-j1.35366875847104436298e-03
  +9.99996797794087122213e-01-j1.78946798202432567036e-03
  +9.99994404067619857557e-01-j2.36556569675151805512e-03
  +9.99990220990147782310e-01-j3.12712555279917332057e-03
  +9.99982911027481713440e-01-j4.13384572589047157021e-03
  +9.99970136916682905692e-01-j5.46463095857901634544e-03
  +9.99947814578752813830e-01-j7.22375926571610510463e-03
  +9.99908808051709785403e-01-j9.54901211219396674201e-03
  +9.99840650343149062174e-01-j1.26223715892733283350e-02
  +9.99721565115837873527e-01-j1.66840450184404728851e-02
  +9.99513528385594707260e-01-j2.20507360370035196406e-02
  +9.99150186074008517245e-01-j2.91391788196329673544e-02
  +9.98515868838835363164e-01-j3.84958246549030810857e-02
  +9.97409312833090422323e-01-j5.08328191910787791086e-02
  +9.95481451277021256452e-01-j6.70681104580767711854e-02
  +9.92130289642760510027e-01-j8.83616320363796031723e-02
  +9.86327888386485773786e-01-j1.16125729179806042035e-01
  +9.76349313581861388833e-01-j1.51958321424295245139e-01
  +9.59387760323672011964e-01-j1.97390186343699897131e-01
  +9.31120069972774855316e-01-j2.53249847515590265079e-01
  +8.85524667081114436051e-01-j3.18387705591776593028e-01
  +8.15720553360497313555e-01-j3.87711919065872268053e-01
  +7.16956800324898169130e-01-j4.50477243368388402533e-01
  +5.91752195939194147734e-01-j4.91509445016406310014e-01
  +4.53388524333080911166e-01-j4.97822629393393667474e-01
  +3.21869996827856663657e-01-j4.67193431000364312045e-01
  +2.13594411149189727928e-01-j4.09843675899751569425e-01
  +1.34517112548637657321e-01-j3.41207061738491634895e-01
  +8.16753580280785429490e-02-j2.73869483365824728516e-01
  +4.84296645669736111617e-02-j2.14672383312115938603e-01
  +2.82994992200477912814e-02-j1.65827131567612640062e-01
  +1.63924525042257081264e-02-j1.26979289670097028608e-01
  +9.44660443304663061115e-03-j9.67334797147925279370e-02
  +5.42762692208285241202e-03-j7.34722246027540298874e-02
  +3.11311551907091348806e-03-j5.57083838469205061550e-02
  +1.78381462038023014607e-03-j4.21975428879496280987e-02
  +1.02154379870728127637e-03-j3.19452695555164159491e-02
  +5.84820473828344834094e-04-j2.41759893043022346115e-02
  +3.34739516605942345317e-04-j1.82928255352191246330e-02
  +1.91577690280594578089e-04-j1.38398333902247996918e-02
  +1.09636782634005297164e-04-j1.04701844496598531903e-02
  +6.27411403926917901489e-05-j7.92068203767794243308e-03
  +3.59037508669333188158e-05-j5.99186630254772926302e-03
  +2.05457618290987922025e-05-j4.53269673602477683738e-03
  +1.17571436330160502594e-05-j3.42884899092824567413e-03
  +6.72790368566024028492e-06-j2.59381156234839756886e-03
  +3.84996492661046979468e-06-j1.96212897241249996372e-03
  +2.20309510678567468391e-06-j1.48428105598556563105e-03
  +1.26069320703548166226e-06-j1.12280524477227096856e-03
  +7.21415392673829450722e-07-j8.49361449698337028086e-04
  +4.12820538593763908241e-07-j6.42510986811094860632e-04
  +2.36231131632373799542e-07-j4.86036084902372478994e-04
  +1.35180152438569088473e-07-j3.67668511250141536763e-04
  +7.73550577231137096860e-08-j2.78127761540103738899e-04
  +4.42654095249182298055e-08-j2.10393458941792572091e-04
  +2.53302952689606685650e-08-j1.59154939060453964363e-04
  +1.44949264019470605319e-08-j1.20394876102947878801e-04
  +8.29452985814575109071e-09-j9.10743091620602263428e-05
  +4.74643495781758764727e-09-j6.88943752079147813056e-05
  +2.71608459549708084003e-09-j5.21160684253903203392e-05
  +1.55424346673896011873e-09-j3.94238945859397277435e-05
  +8.89395255473655413046e-10-j2.98227305034705261061e-05
  +5.08944664823823558101e-10-j2.25598019620030972856e-05
  +2.91236849102074143304e-10-j1.70656628648656751945e-05
  +1.66656432672038369566e-10-j1.29095481192900016156e-05
  +9.53669380613139672428e-11-j9.76559972824091904891e-06
  +5.45724682155578861754e-11-j7.38731806629305442406e-06
  +3.12283727214917348740e-11-j5.58823520626293188227e-06
  +1.78700230117985414966e-11-j4.22729499934404903244e-06
  +1.02258841755342225932e-11-j3.19779364178329310466e-06
  +5.85162688945939740275e-12-j2.41901361910700228968e-06
  +3.34851604669102682613e-12-j1.82989509171422572619e-06
  +1.91614399324274929641e-12-j1.38424853015601127824e-06
  +1.09648804175994398968e-12-j1.04713324928527679264e-06
  +6.27450770903432202918e-13-j7.92117902147804325728e-07
  +3.59050399925311556763e-13-j5.99208144074479945349e-07
  +2.05461839660968698554e-13-j4.53278986564484852462e-07
  +1.17572818650662630513e-13-j3.42888930487189692190e-07
  +6.72794895065236638368e-14-j2.59382901338000952578e-07
  +3.84997974889733166705e-14-j1.96213652656923543298e-07
  +2.20309996042438051510e-14-j1.48428432600507253264e-07
  +1.26069479638482968505e-14-j1.12280666028698539115e-07
  +7.21415913114372270971e-15-j8.49362062441198914071e-08
  +4.12820709014628933758e-15-j6.42511252052932719614e-08
  +2.36231187437535230509e-15-j4.86036199719254115532e-08
  +1.35180170712244829564e-15-j3.67668560951632993304e-08
  +7.73550637069188762325e-16-j2.78127783054693838281e-08
  +4.42654114843450112594e-16-j2.10393468254946051610e-08
  +2.53302959105844902961e-16-j1.59154943091895474421e-08
</dep>
<dep PhRad acfrequency>
  -6.28319999173164087363e-05
  -8.30602060494077006200e-05
  -1.09800703988025262991e-04
  -1.45150068296263045058e-04
  -1.91879846976162677557e-04
  -2.53653862952110274644e-04
  -3.35315473527984006085e-04
  -4.43267309755280625779e-04
  -5.85973267846462832036e-04
  -7.74622108392328300244e-04
  -1.02400468649151057260e-03
  -1.35367357760576346483e-03
  -1.78947598676090216183e-03
  -2.36558005356372804545e-03
  -3.12715325238056363402e-03
  -4.13390248882464922398e-03
  -5.46475253393665164059e-03
  -7.22402748570132556549e-03
  -9.54961501432981946236e-03
  -1.26237421936884301743e-02
  -1.66871816770033168376e-02
  -2.20579417736974439657e-02
  -2.91557668165371534907e-02
  -3.85340486130399464959e-02
  -5.09209152513157778386e-02
  -6.72710346090902161498e-02
  -8.88283651848641303550e-02
  -1.17196173591457925012e-01
  -1.54400899555796999874e-01
  -2.02914872142821611778e-01
  -2.65560810721869822171e-01
  -3.45155271024589427320e-01
  -4.43694058634956978171e-01
  -5.60983427928836375642e-01
  -6.93124683371755923034e-01
  -8.32079363205651456603e-01
  -9.67531528827887621347e-01
  -1.09036638069286140329e+00
  -1.19526901490484194213e+00
  -1.28096964561885773293e+00
  -1.34891590794958982080e+00
  -1.40177133175999779624e+00
  -1.44241428482668032629e+00
  -1.47345244919342577283e+00
  -1.49706058998856805786e+00
  -1.51497557913978275757e+00
  -1.52855210486743731124e+00
  -1.53883288223521907945e+00
  -1.54661452398521448437e+00
  -1.55250304836409935838e+00
  -1.55695836636892948057e+00
  -1.56032902571935205849e+00
  -1.56287896812116833267e+00
  -1.56480797626109091603e+00
  -1.56626723057825456564e+00
  -1.56737111611496882091e+00
  -1.56820617073815915532e+00
  -1.56883786140316416891e+00
  -1.56931571329310237672e+00
  -1.56967719118594217775e+00
  -1.56995063615562902015e+00
  -1.57015748733389060021e+00
  -1.57031396270198930765e+00
  -1.57043233059584674827e+00
  -1.57052187157373324133e+00
  -1.57058960604285791085e+00
  -1.57064084468607823020e+00
  -1.57067960484119795161e+00
  -1.57070892547736296052e+00
  -1.57073110546346894623e+00
  -1.57074788380961050116e+00
  -1.57076057601318330725e+00
  -1.57077017719974043608e+00
  -1.57077744014527564964e+00
  -1.57078293429722459784e+00
  -1.57078709042169117893e+00
  -1.57079023437743492408e+00
  -1.57079261266465830538e+00
  -1.57079441175172584977e+00
  -1.57079577269511538873e+00
  -1.57079680219888073722e+00
  -1.57079758098072441719e+00
  -1.57079817010062949834e+00
  -1.57079861574823298476e+00
  -1.57079895286430204493e+00
  -1.57079920788024551825e+00
  -1.57079940079045488055e+00
  -1.57079954671995358773e+00
  -1.57079965711026803277e+00
  -1.57079974061649196848e+00
  -1.57079980378588834888e+00
  -1.57079985157122026251e+00
  -1.57079988771907141931e+00
  -1.57079991506359517572e+00
  -1.57079993574872478490e+00
  -1.57079995139626626965e+00
  -1.57079996323305781658e+00
  -1.57079997218715661234e+00
  -1.57079997896060419293e+00
  -1.57079998408446841474e+00
</dep>
<dep Ph acfrequency>
  -3.59999999526259065186e-03
  -4.75898812353367246103e-03
  -6.29110221474552758908e-03
  -8.31646686189436816494e-03
  -1.09938796968771582141e-02
  -1.45332618192576552146e-02
  -1.92121165122985486373e-02
  -2.53972866551917877964e-02
  -3.35737166451372873177e-02
  -4.43824737428759538704e-02
  -5.86710095392385735935e-02
  -7.75596014670987543571e-02
  -1.02529181823581116983e-01
  -1.35537436224048596367e-01
  -1.79172264269321840358e-01
  -2.36854611659166297555e-01
  -3.13106524098738625561e-01
  -4.13905318126508325882e-01
  -5.47151356817980438763e-01
  -7.23285458003538828109e-01
  -9.56102846275973194956e-01
  -1.26382401300787483578e+00
  -1.67049848070304562953e+00
  -2.20783319020473323135e+00
  -2.91754671035040757943e+00
  -3.85433735346200645466e+00
  -5.08947852472483575070e+00
  -6.71483041967864302535e+00
  -8.84649921060716160071e+00
  -1.16261385872510487616e+01
  -1.52154780780292107067e+01
  -1.97758940617602796408e+01
  -2.54217375077324483357e+01
  -3.21419076353420365422e+01
  -3.97130261672129023509e+01
  -4.76745242478409920750e+01
  -5.54353435157307643522e+01
  -6.24732456470317814023e+01
  -6.84837097921032409431e+01
  -7.33939827512714515478e+01
  -7.72870077129253161274e+01
  -8.03153933399540420623e+01
  -8.26440575721932901843e+01
  -8.44224092356813855531e+01
  -8.57750529023243757365e+01
  -8.68015037704229968085e+01
  -8.75793795760563824615e+01
  -8.81684233519033142557e+01
  -8.86142775392598025519e+01
  -8.89516643447726949034e+01
  -8.92069346659050665949e+01
  -8.94000587692524106842e+01
  -8.95461593652311762526e+01
  -8.96566831318424846131e+01
  -8.97402920499381906438e+01
  -8.98035398843564962590e+01
  -8.98513848780457919929e+01
  -8.98875780024731199092e+01
  -8.99149568349753138818e+01
  -8.99356679441907260752e+01
  -8.99513351502461233622e+01
  -8.99631868220334496300e+01
  -8.99721521792583587285e+01
  -8.99789341441470611471e+01
  -8.99840644522765416013e+01
  -8.99879453424097448533e+01
  -8.99908810935491771943e+01
  -8.99931018816576369090e+01
  -8.99947818264340924088e+01
  -8.99960526430559042410e+01
  -8.99970139692290160838e+01
  -8.99977411772259330291e+01
  -8.99982912834075960973e+01
  -8.99987074185604853938e+01
  -8.99990222095430567606e+01
  -8.99992603373772652731e+01
  -8.99994404723511252087e+01
  -8.99995767378528483960e+01
  -8.99996798177077437231e+01
  -8.99997577938377730788e+01
  -8.99998167799205788242e+01
  -8.99998614007290598238e+01
  -8.99998951547343040147e+01
  -8.99999206884014313346e+01
  -8.99999400036842303052e+01
  -8.99999546149873310696e+01
  -8.99999656679023019024e+01
  -8.99999740290271290633e+01
  -8.99999803539114537898e+01
  -8.99999851384544626853e+01
  -8.99999887577858146415e+01
  -8.99999914956772499863e+01
  -8.99999935667917156934e+01
  -8.99999951335138490549e+01
  -8.99999963186817097949e+01
  -8.99999972152177036833e+01
  -8.99999978934143172182e+01
  -8.99999984064451865606e+01
  -8.99999987945342354578e+01
  -8.99999990881093481221e+01
</dep>
<dep Vc.v acfrequency>
  +9.99999996052158124371e+00-j6.28318528237456486174e-04
  +9.99999993101034334586e+00-j8.30600114369504450088e-04
  +9.99999987943861867734e+00-j1.09800446344303923377e-03
  +9.99999978931556476880e+00-j1.45149726834338044582e-03
  +9.99999963182296980335e+00-j1.91879393568956751158e-03
  +9.99999935660020078387e+00-j2.53653258920396142487e-03
  +9.99999887564063172363e+00-j3.35314664282098089804e-03
  +9.99999803515023799605e+00-j4.43266215142470824950e-03
  +9.99999656636974521007e+00-j5.85971763455208575350e-03
  +9.99999399963515500644e+00-j7.74619987126131878674e-03
  +9.99998951419672721386e+00-j1.02400157609617535603e-02
  +9.99998167577534502470e+00-j1.35366875847104453645e-02
  +9.99996797794087122213e+00-j1.78946798202432554026e-02
  +9.99994404067619946375e+00-j2.36556569675151831533e-02
  +9.99990220990147804514e+00-j3.12712555279917314710e-02
  +9.99982911027481691235e+00-j4.13384572589047122326e-02
  +9.99970136916682861283e+00-j5.46463095857901634544e-02
  +9.99947814578752769421e+00-j7.22375926571610510463e-02
  +9.99908808051709740994e+00-j9.54901211219396639507e-02
  +9.99840650343149128787e+00-j1.26223715892733290289e-01
  +9.99721565115837940141e+00-j1.66840450184404742728e-01
  +9.99513528385594796077e+00-j2.20507360370035210284e-01
  +9.99150186074008495041e+00-j2.91391788196329659666e-01
  +9.98515868838835451982e+00-j3.84958246549030824735e-01
  +9.97409312833090311301e+00-j5.08328191910787818841e-01
  +9.95481451277021278656e+00-j6.70681104580767684098e-01
  +9.92130289642760487823e+00-j8.83616320363796114989e-01
  +9.86327888386485795991e+00-j1.16125729179806036484e+00
  +9.76349313581861366629e+00-j1.51958321424295239588e+00
  +9.59387760323672011964e+00-j1.97390186343699891580e+00
  +9.31120069972774899725e+00-j2.53249847515590253977e+00
  +8.85524667081114458256e+00-j3.18387705591776626335e+00
  +8.15720553360497291351e+00-j3.87711919065872256951e+00
  +7.16956800324898146926e+00-j4.50477243368388435840e+00
